EXPLAIN
TAG	EISPOT
TITLE	LABEL	Additive Experiments	Test &Identifier
DATE	LABEL	1/31/2023	Date
TIME	LABEL	15:52:24	Time
NOTES	NOTES	1	&Notes...
	
PSTAT	PSTAT	IFC1010-20111	Potentiostat
VDC	POTEN	0.00000E+000	T	DC &Voltage (V)
FREQINIT	QUANT	1.00000E+005	Initial Fre&q. (Hz)
FREQFINAL	QUANT	1.00000E-001	Final Fre&q. (Hz)
PTSPERDEC	QUANT	1.00000E+001	Points/&decade
VAC	QUANT	1.00000E+001	AC &Voltage (mV rms)
AREA	QUANT	1.26700E+000	&Area (cm^2)
CONDIT	TWOPARAM	F	6.00000E+001	1.00000E-002	Conditionin&g	Time(s)	E(V)
DELAY	TWOPARAM	T	3.00000E+001	0.00000E+000	Init. De&lay	Time(s)	Stab.(mV/s)
SPEED	SELECTOR	2	&Optimize for:
ZGUESS	QUANT	1.00000E+003	E&stimated Z (ohms)
OCVCURVE	TABLE	116
	Pt	T	Vf	Vm	Ach	Over	Temp
	#	s	V vs. Ref.	V	V	bits	deg C
	0	0.258333	2.81693E+000	2.81693E+000	0.00000E+000	...........	1423.57
	1	0.516667	2.81692E+000	2.81645E+000	0.00000E+000	...........	1423.57
	2	0.775	2.81687E+000	2.81615E+000	0.00000E+000	...........	1423.57
	3	1.03333	2.81673E+000	2.81597E+000	0.00000E+000	...........	1423.57
	4	1.29167	2.81651E+000	2.81590E+000	0.00000E+000	...........	1423.57
	5	1.55	2.81627E+000	2.81584E+000	0.00000E+000	...........	1423.55
	6	1.80833	2.81607E+000	2.81582E+000	0.00000E+000	...........	1423.48
	7	2.06667	2.81594E+000	2.81575E+000	0.00000E+000	...........	1423.48
	8	2.325	2.81586E+000	2.81574E+000	0.00000E+000	...........	1423.48
	9	2.58333	2.81581E+000	2.81571E+000	0.00000E+000	...........	1423.40
	10	2.84167	2.81577E+000	2.81568E+000	0.00000E+000	...........	1423.39
	11	3.1	2.81574E+000	2.81565E+000	0.00000E+000	...........	1423.39
	12	3.35833	2.81571E+000	2.81569E+000	0.00000E+000	...........	1423.39
	13	3.61667	2.81569E+000	2.81566E+000	0.00000E+000	...........	1423.39
	14	3.875	2.81568E+000	2.81564E+000	0.00000E+000	...........	1423.39
	15	4.13333	2.81567E+000	2.81568E+000	0.00000E+000	...........	1423.39
	16	4.39167	2.81566E+000	2.81570E+000	0.00000E+000	...........	1423.39
	17	4.65	2.81567E+000	2.81565E+000	0.00000E+000	...........	1423.48
	18	4.90833	2.81567E+000	2.81566E+000	0.00000E+000	...........	1423.48
	19	5.16667	2.81567E+000	2.81562E+000	0.00000E+000	...........	1423.48
	20	5.425	2.81567E+000	2.81575E+000	0.00000E+000	...........	1423.48
	21	5.68333	2.81566E+000	2.81564E+000	0.00000E+000	...........	1423.48
	22	5.94167	2.81567E+000	2.81564E+000	0.00000E+000	...........	1423.48
	23	6.2	2.81567E+000	2.81560E+000	0.00000E+000	...........	1423.48
	24	6.45833	2.81566E+000	2.81562E+000	0.00000E+000	...........	1423.48
	25	6.71667	2.81564E+000	2.81564E+000	0.00000E+000	...........	1423.48
	26	6.975	2.81563E+000	2.81565E+000	0.00000E+000	...........	1423.48
	27	7.23333	2.81563E+000	2.81566E+000	0.00000E+000	...........	1423.48
	28	7.49167	2.81563E+000	2.81565E+000	0.00000E+000	...........	1423.48
	29	7.75	2.81564E+000	2.81567E+000	0.00000E+000	...........	1423.39
	30	8.00833	2.81565E+000	2.81563E+000	0.00000E+000	...........	1423.39
	31	8.26667	2.81565E+000	2.81563E+000	0.00000E+000	...........	1423.39
	32	8.525	2.81565E+000	2.81567E+000	0.00000E+000	...........	1423.39
	33	8.78333	2.81565E+000	2.81569E+000	0.00000E+000	...........	1423.39
	34	9.04167	2.81565E+000	2.81563E+000	0.00000E+000	...........	1423.39
	35	9.3	2.81566E+000	2.81572E+000	0.00000E+000	...........	1423.39
	36	9.5583	2.81567E+000	2.81571E+000	0.00000E+000	...........	1423.23
	37	9.8167	2.81568E+000	2.81568E+000	0.00000E+000	...........	1422.95
	38	10.075	2.81569E+000	2.81566E+000	0.00000E+000	...........	1422.95
	39	10.3333	2.81569E+000	2.81569E+000	0.00000E+000	...........	1422.95
	40	10.5917	2.81569E+000	2.81570E+000	0.00000E+000	...........	1423.30
	41	10.85	2.81568E+000	2.81566E+000	0.00000E+000	...........	1423.30
	42	11.1083	2.81568E+000	2.81570E+000	0.00000E+000	...........	1423.30
	43	11.3667	2.81568E+000	2.81565E+000	0.00000E+000	...........	1423.30
	44	11.625	2.81568E+000	2.81569E+000	0.00000E+000	...........	1423.30
	45	11.8833	2.81568E+000	2.81565E+000	0.00000E+000	...........	1423.30
	46	12.1417	2.81567E+000	2.81567E+000	0.00000E+000	...........	1423.30
	47	12.4	2.81567E+000	2.81568E+000	0.00000E+000	...........	1423.30
	48	12.6583	2.81567E+000	2.81566E+000	0.00000E+000	...........	1423.30
	49	12.9167	2.81567E+000	2.81566E+000	0.00000E+000	...........	1423.30
	50	13.175	2.81567E+000	2.81569E+000	0.00000E+000	...........	1423.30
	51	13.4333	2.81567E+000	2.81567E+000	0.00000E+000	...........	1423.30
	52	13.6917	2.81567E+000	2.81564E+000	0.00000E+000	...........	1423.30
	53	13.95	2.81567E+000	2.81571E+000	0.00000E+000	...........	1423.30
	54	14.2083	2.81567E+000	2.81572E+000	0.00000E+000	...........	1423.30
	55	14.4667	2.81568E+000	2.81568E+000	0.00000E+000	...........	1423.30
	56	14.725	2.81569E+000	2.81570E+000	0.00000E+000	...........	1423.30
	57	14.9833	2.81570E+000	2.81569E+000	0.00000E+000	...........	1423.30
	58	15.2417	2.81570E+000	2.81576E+000	0.00000E+000	...........	1423.30
	59	15.5	2.81570E+000	2.81574E+000	0.00000E+000	...........	1423.30
	60	15.7583	2.81571E+000	2.81566E+000	0.00000E+000	...........	1423.30
	61	16.0167	2.81572E+000	2.81565E+000	0.00000E+000	...........	1423.30
	62	16.275	2.81571E+000	2.81567E+000	0.00000E+000	...........	1423.30
	63	16.5333	2.81569E+000	2.81574E+000	0.00000E+000	...........	1423.30
	64	16.7917	2.81568E+000	2.81571E+000	0.00000E+000	...........	1423.21
	65	17.05	2.81569E+000	2.81568E+000	0.00000E+000	...........	1423.21
	66	17.3083	2.81570E+000	2.81573E+000	0.00000E+000	...........	1423.21
	67	17.5667	2.81570E+000	2.81570E+000	0.00000E+000	...........	1422.98
	68	17.825	2.81571E+000	2.81567E+000	0.00000E+000	...........	1422.77
	69	18.0833	2.81570E+000	2.81570E+000	0.00000E+000	...........	1422.77
	70	18.3417	2.81570E+000	2.81570E+000	0.00000E+000	...........	1422.77
	71	18.6	2.81570E+000	2.81574E+000	0.00000E+000	...........	1423.21
	72	18.8583	2.81570E+000	2.81572E+000	0.00000E+000	...........	1423.21
	73	19.1167	2.81571E+000	2.81571E+000	0.00000E+000	...........	1423.21
	74	19.375	2.81572E+000	2.81572E+000	0.00000E+000	...........	1423.21
	75	19.6333	2.81572E+000	2.81571E+000	0.00000E+000	...........	1423.21
	76	19.8917	2.81572E+000	2.81576E+000	0.00000E+000	...........	1423.21
	77	20.15	2.81572E+000	2.81567E+000	0.00000E+000	...........	1423.21
	78	20.4083	2.81572E+000	2.81567E+000	0.00000E+000	...........	1423.21
	79	20.6667	2.81571E+000	2.81571E+000	0.00000E+000	...........	1423.21
	80	20.925	2.81570E+000	2.81569E+000	0.00000E+000	...........	1423.21
	81	21.1833	2.81570E+000	2.81572E+000	0.00000E+000	...........	1423.21
	82	21.4417	2.81570E+000	2.81574E+000	0.00000E+000	...........	1423.21
	83	21.7	2.81570E+000	2.81573E+000	0.00000E+000	...........	1423.21
	84	21.9583	2.81572E+000	2.81573E+000	0.00000E+000	...........	1423.21
	85	22.2167	2.81572E+000	2.81572E+000	0.00000E+000	...........	1423.21
	86	22.475	2.81573E+000	2.81571E+000	0.00000E+000	...........	1423.21
	87	22.7333	2.81573E+000	2.81569E+000	0.00000E+000	...........	1423.21
	88	22.9917	2.81572E+000	2.81570E+000	0.00000E+000	...........	1423.21
	89	23.25	2.81571E+000	2.81570E+000	0.00000E+000	...........	1423.21
	90	23.5083	2.81571E+000	2.81579E+000	0.00000E+000	...........	1423.21
	91	23.7667	2.81571E+000	2.81577E+000	0.00000E+000	...........	1423.13
	92	24.025	2.81573E+000	2.81571E+000	0.00000E+000	...........	1423.13
	93	24.2833	2.81574E+000	2.81574E+000	0.00000E+000	...........	1423.13
	94	24.5417	2.81574E+000	2.81574E+000	0.00000E+000	...........	1423.12
	95	24.8	2.81574E+000	2.81570E+000	0.00000E+000	...........	1422.77
	96	25.0583	2.81574E+000	2.81575E+000	0.00000E+000	...........	1422.77
	97	25.3167	2.81573E+000	2.81576E+000	0.00000E+000	...........	1422.77
	98	25.575	2.81573E+000	2.81571E+000	0.00000E+000	...........	1423.02
	99	25.8333	2.81573E+000	2.81571E+000	0.00000E+000	...........	1423.13
	100	26.0917	2.81573E+000	2.81575E+000	0.00000E+000	...........	1423.13
	101	26.35	2.81573E+000	2.81571E+000	0.00000E+000	...........	1423.13
	102	26.6083	2.81573E+000	2.81571E+000	0.00000E+000	...........	1423.04
	103	26.8667	2.81572E+000	2.81572E+000	0.00000E+000	...........	1423.04
	104	27.125	2.81572E+000	2.81573E+000	0.00000E+000	...........	1423.04
	105	27.3833	2.81572E+000	2.81577E+000	0.00000E+000	...........	1423.04
	106	27.6417	2.81572E+000	2.81573E+000	0.00000E+000	...........	1423.13
	107	27.9	2.81573E+000	2.81575E+000	0.00000E+000	...........	1423.13
	108	28.1583	2.81574E+000	2.81575E+000	0.00000E+000	...........	1423.13
	109	28.4167	2.81575E+000	2.81575E+000	0.00000E+000	...........	1423.13
	110	28.675	2.81575E+000	2.81577E+000	0.00000E+000	...........	1423.13
	111	28.9333	2.81575E+000	2.81571E+000	0.00000E+000	...........	1423.13
	112	29.1917	2.81575E+000	2.81573E+000	0.00000E+000	...........	1423.13
	113	29.45	2.81574E+000	2.81573E+000	0.00000E+000	...........	1423.13
	114	29.7083	2.81574E+000	2.81573E+000	0.00000E+000	...........	1423.13
	115	29.9667	2.81573E+000	2.81580E+000	0.00000E+000	...........	1423.13
EOC	QUANT	2.815732	Open Circuit (V)
PSTATMODEL	IQUANT	64	Pstat Model
PSTATSECTION	LABEL	IFC1010-20111	Pstat Section
PSTATSERIALNO	LABEL	20111	Pstat Serial Number
CTRLMODE	IQUANT	1	Control Mode
ELECTROMETER	IQUANT	0	RE=0 or CS=1
IESTAB	IQUANT	0	I/E Stability
CASPEED	IQUANT	3	Control Amp Speed
CONVENTION	IQUANT	1	Current Convention
ICHRANGE	IQUANT	2	Ich Range
ICHRANGEMODE	TOGGLE	F	Ich Auto Range
ICHOFFSETENABLE	TOGGLE	T	Ich Offset Enable
ICHOFFSET	QUANT	0	Ich Offset (V)
ICHFILTER	IQUANT	4	Ich Filter
VCHRANGE	IQUANT	2	Vch Range
VCHRANGEMODE	TOGGLE	F	Vch Auto Range
VCHOFFSETENABLE	TOGGLE	T	Vch Offset Enable
VCHOFFSET	QUANT	0	Vch Offset (V)
VCHFILTER	IQUANT	4	Vch Filter
IERANGELOWERLIMIT	IQUANT	4	I/E Range Lower Limit
IERANGEMODE	TOGGLE	F	I/E AutoRange
IERANGE	IQUANT	10	I/E Range
ACHSELECT	IQUANT	0	Ach Select
ACHRANGE	IQUANT	2	Ach Range
ACHOFFSETENABLE	TOGGLE	F	Ach Offset Enable
ACHOFFSET	QUANT	0	Ach Offset (V)
ACHFILTER	IQUANT	1	Ach Filter
SENSECABLEID	IQUANT	14	Sense Cable ID
PWRCABLEID	IQUANT	14	Power Cable ID
DCCALDATE	LABEL	12/5/2022	DC Calibration Date
ACCALDATE	LABEL	12/17/2017	AC Calibration Date
FRAMEWORKVERSION	QUANT	7.06	Framework Version
INSTRUMENTVERSION	LABEL	4.30	Instrument Version
ZCURVE	TABLE
	Pt	Time	Freq	Zreal	Zimag	Zsig	Zmod	Zphz	Idc	Vdc	IERange
	#	s	Hz	ohm	ohm	V	ohm	°	A	V	#
	0	8	100019.5	15.52505	-4.25808	1	16.0984	-15.33744	-3.622072E-007	2.818785	9
	1	12	79511.72	15.83919	-4.959707	1	16.59755	-17.38684	-1.53497E-006	2.818771	10
	2	17	63105.47	16.33736	-5.86008	1	17.35655	-19.73251	4.561922E-007	2.818802	9
	3	20	50214.84	16.87862	-6.897091	1	18.23342	-22.22634	-4.388871E-007	2.818786	9
	4	22	39902.34	17.51407	-8.113951	1	19.3023	-24.85743	-4.663447E-007	2.818788	9
	5	25	31699.22	18.28718	-9.54506	1	20.62836	-27.56246	4.528138E-007	2.818803	9
	6	28	25136.72	19.22835	-11.23195	1	22.2685	-30.29069	-4.180563E-007	2.818787	9
	7	30	19980.47	20.36869	-13.17485	1	24.2582	-32.89553	4.624253E-007	2.818803	9
	8	32	15878.91	21.75264	-15.42329	1	26.66562	-35.33781	-4.80384E-007	2.818788	9
	9	35	12597.66	23.45826	-18.02916	1	29.58615	-37.54456	4.613703E-007	2.818802	9
	10	37	10019.53	25.51376	-20.9495	1	33.01263	-39.38962	4.396388E-007	2.818806	9
	11	40	7928.241	28.06339	-24.31912	1	37.13453	-40.91148	-2.48076E-008	2.818795	9
	12	42	6307.871	31.05721	-27.98656	1	41.80668	-42.02294	-5.359129E-008	2.818795	9
	13	44	5034.722	34.57651	-31.9439	1	47.07385	-42.73365	-2.889278E-007	2.818829	9
	14	47	3993.056	38.84005	-36.37077	1	53.21074	-43.11957	-2.2965E-007	2.818828	9
	15	49	3144.055	43.98709	-41.28897	1	60.32946	-43.18778	-2.763977E-007	2.818829	9
	16	52	2519.531	49.47716	-46.13646	1	67.65029	-42.99892	-2.775063E-007	2.818825	9
	17	54	2000.762	55.96354	-51.48531	1	76.04377	-42.61343	-2.497394E-007	2.818825	9
	18	57	1580.669	63.44024	-57.24651	1	85.45073	-42.06212	-2.584561E-007	2.818825	9
	19	59	1253.634	71.69004	-63.25166	1	95.6046	-41.42175	-2.518096E-007	2.818825	9
	20	62	1000.702	80.61787	-69.40833	1	106.3803	-40.72696	-2.601102E-007	2.818822	9
	21	64	790.0281	91.0915	-76.23444	1	118.7828	-39.92595	-2.179002E-007	2.818824	9
	22	66	628.811	102.4385	-83.17579	1	131.954	-39.07515	-2.571857E-007	2.818831	9
	23	69	502.2321	115.0508	-90.16988	1	146.1756	-38.08721	-2.746141E-007	2.818835	9
	24	71	400.1524	129.3748	-97.2413	1	161.8447	-36.92941	-2.468036E-007	2.818828	9
	25	74	315.5048	146.2455	-104.1884	1	179.5633	-35.46686	-1.612494E-008	2.818831	8
	26	76	252.0161	163.9701	-109.8697	1	197.3767	-33.82442	-6.852233E-009	2.818833	8
	27	79	200.3205	183.6346	-114.1789	1	216.2372	-31.87221	-3.264272E-008	2.818833	8
	28	81	158.0056	205.0212	-116.4556	1	235.7872	-29.59733	-3.211866E-008	2.818835	8
	29	84	125.558	225.9829	-116.2445	1	254.128	-27.22108	-3.71667E-008	2.818833	8
	30	86	99.734	246.1705	-113.6812	1	271.1519	-24.78742	-1.269048E-008	2.81883	8
	31	88	79.44915	264.6154	-109.236	1	286.2758	-22.43134	-5.651479E-007	2.818831	8
	32	91	62.91946	281.4602	-102.9498	1	299.6974	-20.09103	-2.724509E-007	2.818829	8
	33	93	49.86702	294.8383	-98.6084	1	310.891	-18.49247	-4.888392E-007	2.818831	8
	34	96	40.0641	305.6084	-93.93413	1	319.7188	-17.08573	-4.853478E-007	2.81883	8
	35	98	31.6723	314.9822	-90.45024	1	327.7118	-16.02194	-3.899221E-007	2.81883	8
	36	100	24.93351	322.0248	-90.4381	1	334.4832	-15.68697	-2.98575E-007	2.818833	8
	37	103	20.03205	328.4618	-92.79318	1	341.3177	-15.77542	-6.351007E-007	2.818832	8
	38	106	15.78283	333.6106	-98.7018	1	347.9053	-16.48134	-5.440658E-007	2.818832	8
	39	108	12.46675	337.3015	-108.2086	1	354.2335	-17.78659	-1.669448E-007	2.818832	8
	40	111	9.9734	341.966	-122.3187	1	363.184	-19.68175	-3.399054E-007	2.818833	8
	41	114	7.878151	346.1712	-142.098	1	374.2009	-22.3174	-2.408227E-007	2.818835	8
	42	117	6.351626	349.825	-165.432	1	386.9693	-25.30943	-1.544489E-007	2.81883	8
	43	120	5.013369	354.2258	-199.1796	1	406.3846	-29.34885	-5.684696E-008	2.818832	8
	44	125	3.985969	360.0859	-241.3118	1	433.4665	-33.82804	-6.893688E-008	2.818834	8
	45	129	3.175813	366.7713	-293.2447	1	469.5888	-38.64338	-6.353406E-008	2.818834	8
	46	133	2.516103	375.4325	-360.1207	1	520.2273	-43.80746	-3.643811E-008	2.818834	8
	47	141	1.99553	385.6743	-443.3267	1	587.6081	-48.9782	-3.258841E-008	2.818835	8
	48	150	1.583615	398.0889	-546.3303	1	675.9819	-53.92068	-2.999894E-008	2.818835	8
	49	161	1.258052	413.4661	-673.875	1	790.6085	-58.46818	-3.272105E-008	2.818836	8
	50	168	0.997765	434.0007	-832.5494	1	938.8798	-62.46737	-3.126598E-008	2.818838	8
	51	175	0.7927448	457.9297	-1028.311	1	1125.666	-65.99554	-2.993622E-008	2.818837	8
	52	184	0.6290258	488.6335	-1271.33	1	1362	-68.97582	-2.934542E-008	2.818841	8
	53	194	0.4988825	526.5691	-1572.991	1	1658.787	-71.49169	-2.549898E-008	2.818838	8
	54	208	0.3985969	573.7675	-1934.397	1	2017.697	-73.47895	-3.587044E-009	2.81884	7
	55	223	0.316723	632.3961	-2389.033	1	2471.316	-75.17341	-2.66936E-009	2.818842	7
	56	244	0.2514753	707.452	-2955.305	1	3038.802	-76.53766	-1.992518E-009	2.818843	7
	57	270	0.1999787	804.1166	-3649.006	1	3736.556	-77.57259	-2.061707E-009	2.818841	7
	58	302	0.1587906	931.4477	-4507.39	1	4602.625	-78.32423	-1.46763E-009	2.818844	7
	59	341	0.1260081	1096.634	-5570.839	1	5677.75	-78.86357	-1.598833E-009	2.818845	7
	60	381	0.1001603	1309.566	-6869.634	1	6993.342	-79.20714	-2.379881E-009	2.818846	7
EXPERIMENTABORTED	TOGGLE	T	Experiment Aborted
